---
title: "AXI4 Channel Architecture & Handshake Protocol"
description: "Master the five-channel AXI4 architecture: Write Address, Write Data, Write Response, Read Address, and Read Data channels, with the VALID/READY handshake contract and combinatorial loop prevention."
order: 6
flashcards: "B-AXI-1_AXI_Channel_Architecture"
sources:
  - title: "Arm AMBA AXI and ACE Protocol Specification"
    type: "standard"
    identifier: "IHI0022H"
    version: "H"
---

# AXI4 Channel Architecture & Handshake Protocol

AXI is the high-performance member of the AMBA family.
Where AHB uses a single shared bus with pipelined phases, AXI uses **five independent channels** — each with its own handshake — to achieve maximum throughput and decoupling.

This architectural difference is what allows AXI to support **outstanding transactions**, **out-of-order completion**, and **independent read/write paths** — features that are impossible on a shared bus.

<QuickTake>
- AXI has **five channels**: Write Address (AW), Write Data (W), Write Response (B), Read Address (AR), Read Data (R).
- Each channel uses the same **VALID/READY handshake**: the sender asserts VALID, the receiver asserts READY, and the transfer occurs when both are high on the same clock edge.
- Channels are **independent** — a write can proceed while a read is stalled. Write data may even arrive before its write address.
- Only three cross-channel dependencies exist: read data after the read address, and (AXI4) the write response after **both** the write-address handshake and the last write-data handshake.
- The VALID/READY contract has strict rules to prevent **combinatorial loops** and **deadlocks**.
</QuickTake>

---

## 1. The Five Channels

AXI splits every memory transaction into separate address, data, and response phases, each carried on its own channel.

### Write Path (3 channels)

| Channel | Direction | Purpose | Key Signals |
|---|---|---|---|
| **AW** (Write Address) | Master → Slave | Carries the write address and burst parameters | `AWADDR`, `AWLEN`, `AWSIZE`, `AWBURST`, `AWID` |
| **W** (Write Data) | Master → Slave | Carries the write data beats | `WDATA`, `WSTRB`, `WLAST` |
| **B** (Write Response) | Slave → Master | Acknowledges the write | `BRESP`, `BID` |

### Read Path (2 channels)

| Channel | Direction | Purpose | Key Signals |
|---|---|---|---|
| **AR** (Read Address) | Master → Slave | Carries the read address and burst parameters | `ARADDR`, `ARLEN`, `ARSIZE`, `ARBURST`, `ARID` |
| **R** (Read Data) | Slave → Master | Returns read data beats and response | `RDATA`, `RRESP`, `RLAST`, `RID` |

> [!NOTE]
> The write path has three channels because the master needs explicit acknowledgment that the slave received the data.
> The read path only needs two because the data channel itself carries the response (`RRESP`).

---

## 2. The VALID/READY Handshake

Every AXI channel uses the same handshake protocol.  This is the most important concept in AXI — if you understand this, you understand 80% of the protocol.

### The Contract

1. The **sender** asserts `VALID` when it has data/address/response to send.
2. The **receiver** asserts `READY` when it can accept.
3. The transfer occurs on the clock edge where **both VALID and READY are high**.
4. Once `VALID` is asserted, the sender **must not de-assert it** until the transfer completes (VALID ∧ READY).

Look at one transfer on the write address channel. Notice that `AWVALID` stays high through the stall and that exactly one column ends in a transfer.

<ProtocolWaveform
  title="AXI VALID/READY handshake: one transfer"
  spec={{
    signal: [
      { name: "ACLK", wave: "p....." },
      {},
      { name: "AWVALID", wave: "01..0." },
      { name: "AWREADY", wave: "0..10." },
      { name: "AWADDR", wave: "x=..x.", data: ["0x1000"] },
      { name: "AWVALID && AWREADY", wave: "0..10." }
    ]
  }}
  caption="Each column is one ACLK cycle; a value is sampled at the rising edge that ends its column. AWVALID rises first and holds AWADDR stable through two stalled cycles. The transfer happens at the end of the fourth column, the only edge where AWVALID and AWREADY are both 1 (bottom row). Generated from the course's channel model and checked against IHI0022E A3.2.1."
/>

### Three Legal Timing Scenarios

There are exactly three legal orderings for VALID and READY:

**Scenario A: VALID before READY**
The sender has data ready before the receiver can accept.  The sender holds VALID and data stable until the receiver asserts READY.

**Scenario B: READY before VALID**
The receiver is pre-emptively signaling it can accept.  This is efficient because the transfer completes immediately when VALID rises.

**Scenario C: VALID and READY simultaneously**
Both assert on the same cycle.  The transfer completes in one cycle.

A destination may also raise READY early and drop it again before VALID arrives; that is legal too (IHI0022E A3.2.1). Predict the transfer edge in each case, then click `READY` cells to see how the handshake moves. The last scenario is a trace with a bug for you to find.

<AxiChannelHandshakeVisualizer focus="handshake" />

> [!IMPORTANT]
> **VALID must never depend on READY.**
> The sender must be able to assert VALID independently of whether READY is high.
> If VALID waits for READY, and READY waits for VALID, you get a **deadlock**.
> This is the single most important rule in AXI.

---

## 3. Preventing Combinatorial Loops

The VALID/READY handshake has a critical asymmetry that prevents combinatorial loops:

| Signal | May depend on the other? |
|---|---|
| **VALID** | ❌ Must NOT wait for READY |
| **READY** | ✅ MAY depend on VALID |

This means:
- A slave **may** wait to see `AWVALID` before asserting `AWREADY`. This is legal and common for slaves that need to decode the address before accepting.
- A master **must not** wait to see `AWREADY` before asserting `AWVALID`. The master must independently decide when it has a transaction to issue.

### Why This Matters

If both sides waited for each other, you'd get a combinatorial loop:
```
VALID = f(READY)   // master waits for slave
READY = f(VALID)   // slave waits for master
// → a combinational loop: it can oscillate or never settle in simulation,
//   and static timing cannot close it
```

IHI0022E A3.2.1 states it directly: "On master and slave interfaces there must be no combinatorial paths between input and output signals."

The spec breaks this loop by forbidding the VALID → READY dependency direction.

### The Stability Rule

Once VALID is asserted:
- The sender **must not change** the associated data/address/control signals until the handshake completes.
- The sender **must not de-assert** VALID until the handshake completes.

This guarantees the receiver can safely sample the payload at any time after seeing VALID.

The check has to fire on **every** stalled cycle, not just when VALID rises. A `$rose(valid)` trigger misses back-to-back transfers where VALID stays high from one transfer into the next stall, and it never checks the payload.

```systemverilog
// IHI0022E A3.2.1: once VALID is 1 it stays 1, with a stable payload,
// until READY is also 1. Triggered by every stalled cycle.
property p_hold(valid, ready, payload);
  @(posedge ACLK) disable iff (!ARESETn)
    valid && !ready |=> valid && $stable(payload);
endproperty

a_aw_hold: assert property (p_hold(AWVALID, AWREADY, {AWID, AWADDR, AWLEN, AWSIZE, AWBURST}));
a_w_hold:  assert property (p_hold(WVALID,  WREADY,  {WDATA, WSTRB, WLAST}));
a_b_hold:  assert property (p_hold(BVALID,  BREADY,  {BID, BRESP}));
a_ar_hold: assert property (p_hold(ARVALID, ARREADY, {ARID, ARADDR, ARLEN, ARSIZE, ARBURST}));
a_r_hold:  assert property (p_hold(RVALID,  RREADY,  {RID, RDATA, RRESP, RLAST}));
```

---

## 4. End-to-End Write Flow

A complete AXI write involves coordination across three channels:

### Step 1: Write Address Channel (AW)
The master sends the address, burst length, burst size, and burst type.

### Step 2: Write Data Channel (W)
The master sends data beats.  Each beat includes `WSTRB` (write strobe) indicating which byte lanes are valid.  The last beat is marked with `WLAST = 1`.

### Step 3: Write Response Channel (B)
After the slave has accepted all data beats, it sends a response (`BRESP`) indicating success or failure.

In this write, follow `BVALID`: it rises only after both the AW handshake and the WLAST handshake are behind it.

<ProtocolWaveform
  title="Complete AXI write transaction"
  spec={{
    signal: [
      { name: "ACLK", wave: "p......" },
      {},
      ["AW channel",
        { name: "AWVALID", wave: "010...." },
        { name: "AWREADY", wave: "010...." },
        { name: "AWADDR", wave: "x=x....", data: ["0x1000"] }
      ],
      {},
      ["W channel",
        { name: "WVALID", wave: "0.1..0." },
        { name: "WREADY", wave: "0.1..0." },
        { name: "WDATA", wave: "x.===x.", data: ["D0", "D1", "D2"] },
        { name: "WLAST", wave: "x.0.1x." }
      ],
      {},
      ["B channel",
        { name: "BVALID", wave: "0....10" },
        { name: "BREADY", wave: "0....10" },
        { name: "BRESP", wave: "x....=x", data: ["OKAY"] }
      ]
    ]
  }}
  caption="A 3-beat write. The address transfers at the end of column 2, the three data beats at the ends of columns 3 to 5 (WLAST on the third), and the response at the end of column 6. BRESP is valid in the same column as BVALID. Generated from the course's channel model and checked against IHI0022E A3.2.1 and A3.3.1."
/>

> [!NOTE]
> **AW and W are independent.** IHI0022E A3.3: "the write data can appear at an interface before the write address", for example when the address path has more register stages. It can also appear in the same cycle. This is not *interleaving*: that word means mixing data beats of different writes, which AXI4 removed (A5.4). Many masters send AW first, but a monitor or slave that assumes it is wrong.

---

## 5. End-to-End Read Flow

A read is simpler — it uses only two channels:

### Step 1: Read Address Channel (AR)
The master sends the address and burst parameters.

### Step 2: Read Data Channel (R)
The slave returns data beats with `RRESP` and marks the last beat with `RLAST = 1`.

Notice that `RVALID` waits until after the AR handshake, and that every beat carries its own `RRESP`.

<ProtocolWaveform
  title="Complete AXI read transaction"
  spec={{
    signal: [
      { name: "ACLK", wave: "p......" },
      {},
      ["AR channel",
        { name: "ARVALID", wave: "010...." },
        { name: "ARREADY", wave: "010...." },
        { name: "ARADDR", wave: "x=x....", data: ["0x2000"] }
      ],
      {},
      ["R channel",
        { name: "RVALID", wave: "0..1..0" },
        { name: "RREADY", wave: "0..1..0" },
        { name: "RDATA", wave: "x..===x", data: ["D0", "D1", "D2"] },
        { name: "RRESP", wave: "x..===x", data: ["OKAY", "OKAY", "OKAY"] },
        { name: "RLAST", wave: "x..0.1x" }
      ]
    ]
  }}
  caption="A 3-beat read. The address transfers at the end of column 2; the slave returns the three beats at the ends of columns 4 to 6, each with its own RRESP, and RLAST on the last. Generated from the course's channel model and checked against IHI0022E A3.3.1."
/>

---

## 6. Channel Independence and Backpressure

The most powerful feature of AXI is that all five channels are **independent**.

- The read path (AR + R) operates completely independently of the write path (AW + W + B).
- A slow slave can apply **backpressure** on one channel by deasserting READY, without affecting other channels.

### Backpressure Example

If the slave's write buffer is full, it deasserts `WREADY`.  The master stalls on the W channel but can continue issuing read addresses on the AR channel.  Reads and writes proceed independently.

This is fundamentally different from AHB, where a single `HREADY` signal stalls the entire bus.

### Dependencies Between Channels

The channels are independent except for the dependencies in IHI0022E A3.3.1. In any transaction:

1. **A source never waits for READY.** The master must not wait for `AWREADY` or `WREADY` before asserting `AWVALID` or `WVALID` (or for `ARREADY` before `ARVALID`). The slave must not wait for `BREADY` or `RREADY` before asserting `BVALID` or `RVALID`.
2. **A destination may wait for VALID, or not.** The slave can wait for `AWVALID` or `WVALID`, or both, before asserting `AWREADY` or `WREADY`, or assert them earlier.
3. **Write data may come first.** W can transfer before, with, or after its AW (A3.3).
4. **Read data follows the read address.** The slave must wait for both `ARVALID` and `ARREADY` before asserting `RVALID`.
5. **The write response follows both the address and the last data beat (AXI4).** The slave must wait for `AWVALID`, `AWREADY`, `WVALID` and `WREADY`, with `WLAST`, before asserting `BVALID`. An AXI3-style slave that accepts all the data and responds before accepting the address is not AXI4 compliant (A3.3.2).

These are per-transaction rules. Ordering *between* transactions is set by IDs (B-AXI-3). AXI4 write data is never interleaved: each write's beats are consecutive, in address order (A5.4).

A checker for rules 4 and 5 only needs handshake counters. Each counter adds 1 at every edge where its handshake happens, so at any edge it holds the handshakes of earlier edges:

```systemverilog
// aw_done, wlast_done, b_done, ar_done, rlast_done: handshake counters
// IHI0022E A3.3.1 (AXI4 write response dependency)
a_b_dep: assert property (@(posedge ACLK) disable iff (!ARESETn)
  BVALID |-> (aw_done > b_done) && (wlast_done > b_done));
// IHI0022E A3.3.1 (read data after the read address)
a_r_dep: assert property (@(posedge ACLK) disable iff (!ARESETn)
  RVALID |-> (ar_done > rlast_done));
```

Try these rules on full channel traces. Predict, then change the READY patterns; the last scenario hides a dependency bug.

<AxiChannelHandshakeVisualizer />

<VisualRecap
  title="The handshake and its three dependencies"
  rule="A transfer happens at the edge where VALID and READY are both 1. VALID never waits for READY and, once raised, stays up with a stable payload until that edge. Across channels only three things wait: R for the AR handshake, and in AXI4, B for both the AW and the WLAST handshake."
  code={`valid && !ready |=> valid && $stable(payload);         // every channel
BVALID |-> (aw_done > b_done) && (wlast_done > b_done); // AXI4
RVALID |-> (ar_done > rlast_done);`}
  mistake="Assuming AW always arrives before W. W may come first: a monitor that only collects write data after an AW drops it, and a slave that answers on WLAST alone breaks AXI4."
  inTestbench="The monitor runs the five channels as independent threads and pairs W bursts with AW in issue order. The protocol checker carries the hold, stability and dependency assertions above."
>
  <svg viewBox="0 0 320 130" role="img" aria-label="AW handshake and WLAST handshake both lead to BVALID; AR handshake leads to RVALID; there is no arrow between AW and W." style={{ width: "100%", maxWidth: 360 }}>
    <rect x="8" y="8" width="128" height="24" rx="4" fill="rgba(6,182,212,0.12)" stroke="rgb(6,182,212)" />
    <text x="16" y="25" fontSize="11" fill="currentColor">✓ AW handshake</text>
    <rect x="8" y="40" width="128" height="24" rx="4" fill="rgba(6,182,212,0.12)" stroke="rgb(6,182,212)" />
    <text x="16" y="57" fontSize="11" fill="currentColor">✓ WLAST handshake</text>
    <path d="M136 20 L176 36 M136 52 L176 36" stroke="currentColor" fill="none" strokeDasharray="5 3" />
    <text x="182" y="40" fontSize="11" fill="currentColor">then BVALID may rise</text>
    <rect x="8" y="80" width="128" height="24" rx="4" fill="rgba(139,92,246,0.12)" stroke="rgb(139,92,246)" />
    <text x="16" y="97" fontSize="11" fill="currentColor">✓ AR handshake</text>
    <path d="M136 92 L176 92" stroke="currentColor" fill="none" strokeDasharray="5 3" />
    <text x="182" y="96" fontSize="11" fill="currentColor">then RVALID may rise</text>
    <text x="8" y="124" fontSize="10" fill="currentColor" fillOpacity="0.7">No arrow between AW and W: either may come first.</text>
  </svg>
</VisualRecap>

---

## 7. Reset Protocol

`ARESETn` is active-LOW. IHI0022E A3.1.2 defines:

1. Reset may be **asserted** (driven LOW) asynchronously, but must be **deasserted** synchronously with a rising `ACLK` edge.
2. While `ARESETn` is LOW, a master drives `ARVALID`, `AWVALID` and `WVALID` LOW, and a slave drives `RVALID` and `BVALID` LOW. Other signals can take any value.
3. The earliest a master may drive a VALID HIGH is at a rising `ACLK` edge after `ARESETn` is HIGH.

```systemverilog
// IHI0022E A3.1.2: VALID LOW while reset is asserted (checked at each ACLK edge)
property p_no_valid_during_reset(valid);
  @(posedge ACLK)
    !ARESETn |-> !valid;
endproperty

a_aw_reset: assert property (p_no_valid_during_reset(AWVALID));
a_w_reset:  assert property (p_no_valid_during_reset(WVALID));
a_b_reset:  assert property (p_no_valid_during_reset(BVALID));
a_ar_reset: assert property (p_no_valid_during_reset(ARVALID));
a_r_reset:  assert property (p_no_valid_during_reset(RVALID));
```

---

## Summary

| Concept | AHB | AXI |
|---|---|---|
| **Topology** | Shared bus | Point-to-point channels |
| **Channels** | 1 (pipelined address/data) | 5 independent channels |
| **Flow control** | Single HREADY | Per-channel VALID/READY |
| **Reads & writes** | Serialized | Fully independent |
| **Outstanding txns** | 1 | Multiple (via IDs) |
| **Backpressure** | Stalls entire bus | Per-channel, independent |

In the next module, we will dive into AXI burst math — how `AWLEN`, `AWSIZE`, and `AWBURST` interact to compute addresses, and the critical 4 KB boundary rule.

<Quiz>
  <QuizQuestion
    question="Why must AWVALID never depend on AWREADY?"
    options={[
      "Because the spec says so, with no technical reason",
      "Because if VALID waited for READY and READY waited for VALID, it would create a combinatorial loop / deadlock",
      "Because AWVALID is driven by the slave",
      "Because AWREADY is always high"
    ]}
    correctAnswer="Because if VALID waited for READY and READY waited for VALID, it would create a combinatorial loop / deadlock"
    explanation="If VALID depended on READY and READY depended on VALID, you'd get a circular combinatorial dependency. The spec breaks this loop by requiring that VALID be asserted independently, while READY may optionally depend on VALID."
  />
  <QuizQuestion
    question="How many channels are involved in a complete AXI write transaction?"
    options={[
      "2: Write Address and Write Data",
      "3: Write Address, Write Data, and Write Response",
      "5: All channels are always involved",
      "1: A single shared channel"
    ]}
    correctAnswer="3: Write Address, Write Data, and Write Response"
    explanation="An AXI write uses the AW channel (address), W channel (data beats with WLAST), and B channel (write response). The read channels (AR, R) are independent and not involved in writes."
  />
  <QuizQuestion
    question="What is the key advantage of AXI's independent channels over AHB's shared bus?"
    options={[
      "AXI uses fewer wires",
      "AXI is simpler to implement",
      "Backpressure on one channel does not stall other channels — reads and writes can proceed independently",
      "AXI does not require a clock signal"
    ]}
    correctAnswer="Backpressure on one channel does not stall other channels — reads and writes can proceed independently"
    explanation="In AHB, a single HREADY signal stalls the entire bus. In AXI, each channel has its own VALID/READY handshake, so a slow write response does not block read transactions from proceeding."
  />
  <QuizQuestion
    question="Once a master asserts AWVALID, what must it do?"
    options={[
      "It can freely toggle AWVALID on any cycle",
      "It must hold AWVALID high and keep AWADDR/control signals stable until AWREADY is also high",
      "It must immediately deassert AWVALID on the next cycle",
      "It must wait for ARESETn to toggle"
    ]}
    correctAnswer="It must hold AWVALID high and keep AWADDR/control signals stable until AWREADY is also high"
    explanation="The stability rule requires that once VALID is asserted, neither it nor the associated payload signals may change until the handshake completes (both VALID and READY high on the same clock edge)."
  />
  <QuizQuestion
    question="All beats of an AXI4 write, including WLAST, have transferred, but the slave has not yet asserted AWREADY. May the slave assert BVALID now?"
    options={[
      "Yes: the data is complete, so the response may go",
      "No: in AXI4, BVALID must wait for both the AW handshake and the WLAST handshake",
      "Yes, as long as BREADY is already high",
      "No: write data must never transfer before the write address"
    ]}
    correctAnswer="No: in AXI4, BVALID must wait for both the AW handshake and the WLAST handshake"
    explanation="IHI0022E A3.3.1 (AXI4 write response dependency): the slave must wait for AWVALID, AWREADY, WVALID and WREADY, with WLAST, before asserting BVALID. Sending the data first is legal (A3.3); answering before the address is accepted is not."
  />
</Quiz>
