---
title: "AXI Pitfalls & Interconnect Deadlocks"
description: "Learn how subtle design flaws in AXI channel handling lead to catastrophic system deadlocks, including circular channel dependencies and cyclic interconnect routing deadlocks."
order: 10
flashcards: "B-AXI-5_AXI_Pitfalls_Interconnect_Deadlocks"
---

import { LabLink } from '@/components/mdx/LabLink';

# AXI Pitfalls & Interconnect Deadlocks

Because AXI decouples address, data, and response channels, implementations must distinguish protocol safety from system-level progress. A source that makes `VALID` depend on `READY` violates the handshake rule; a destination may apply backpressure, but its policy can still participate in a larger wait cycle.

In this module, we will dissect the most common AXI design flaws, why they cause deadlocks, and how to write verification assertions to catch them.

<QuickTake>
- **Canonical Rule:** A source must assert `VALID` independently of the destination's `READY`.
- **Master Bug in This Example:** `WVALID` incorrectly depends on `AWREADY`.
- **Destination Policy:** A slave may wait for `VALID` before asserting `READY`; cross-channel gating is risky but not automatically a protocol violation.
- **Liveness:** Bounded `READY` latency belongs to an integration or QoS contract, not the base AXI handshake rules.
- **Cyclic Deadlocks:** Poor interconnect topology can cause traffic jams where multiple masters block each other in a circle.
- **4KB Boundary Violations:** An INCR burst that crosses a 4KB boundary can run past the slave it was routed to (IHI0022E A3.4.1). Check INCR bursts only, from the aligned start address.
</QuickTake>

---

## 1. Channel Dependency Deadlocks

The most common AXI deadlock occurs during a Write transaction when the master and slave each wait for the other to act first.

### The AXI Dependency Rules

Treat each arrow below as “the signal on the left waits for the signal on the right”:

1. **`master.WVALID → slave.AWREADY` is illegal.** `WVALID` is a source-owned signal and cannot be conditional on `READY`.
2. **`slave.AWREADY → master.WVALID` is a legal destination policy.** A destination may observe `VALID` before raising `READY`, although this cross-channel choice can be a poor implementation policy.
3. The two edges together form a directed cycle. Cycle detection diagnoses the deadlock; rule classification attributes the protocol violation to the master edge.

### The Classic Deadlock Scenario

Imagine a naive Master and a naive Slave:

- **Buggy Master Design:** “I won't put data on the bus until the slave accepts my address.” The source illegally waits for `AWREADY` before asserting `WVALID`.
- **Risky Slave Policy:** “I won't accept an address until write data is present.” The destination legally delays `AWREADY` until `WVALID`, but this completes the cycle.

**Result:** The Master is waiting for the Slave, and the Slave is waiting for the Master. Neither asserts their signal. **Deadlock.**

<InteractiveWrapper>
  <AxiDeadlockSimulator />
</InteractiveWrapper>

### Protocol Safety: VALID and Payload Stability

Pin-level assertions can prove that source-owned `VALID` and payload signals remain stable under backpressure. They cannot always prove the internal cause of a combinational or state dependency.

```systemverilog
property p_awvalid_and_payload_stable;
  @(posedge ACLK) disable iff (!ARESETn)
    AWVALID && !AWREADY
      |=> AWVALID && $stable({AWID, AWADDR, AWLEN, AWSIZE, AWBURST});
endproperty
```

### Optional QoS/Liveness Contract

If a product requires bounded response latency, verify it separately and name it as a configured service bound. This is an environment-specific progress requirement, not a generic AXI protocol assertion.

```systemverilog
property p_aw_service_bound;
  @(posedge ACLK) disable iff (!ARESETn)
    AWVALID |-> ##[0:MAX_AW_LATENCY] AWREADY;
endproperty
```

---

## 2. Cyclic Interconnect Deadlocks

Even if every Master and Slave strictly obeys the channel dependency rules, the system can still deadlock due to the **topology of the interconnect**.

### The Traffic Jam

Imagine a system with two Masters (M1, M2) and two Slaves (S1, S2).
Both masters can access both slaves through a crossbar switch.

1. **M1** issues a burst to **S1**. The interconnect buffers it.
2. **M2** issues a burst to **S2**. The interconnect buffers it.
3. Now, before those finish:
   - **M1** issues a burst to **S2**.
   - **M2** issues a burst to **S1**.

If the interconnect's internal FIFOs fill up, and it doesn't have independent paths or virtual channels for different routes, a **cyclic deadlock** occurs:
- M1's path to S2 is blocked by M2's traffic.
- M2's path to S1 is blocked by M1's traffic.

### Solving Cyclic Deadlocks

System architects solve this by:
1. **Breaking the cycle:** Designing the interconnect as a tree rather than a full mesh where possible.
2. **Virtual Channels:** Using separate internal FIFOs for different masters or transaction types.
3. **Strict Ordering:** Forcing responses to clear out before accepting new cross-traffic.

From a verification perspective, you find these by writing a **Stress Sequence** that unleashes maximum outstanding transactions from all masters to all slaves simultaneously with random delays.

---

## 3. The 4KB Boundary Violation

AXI enforces a strict rule: **A single burst must not cross a 4 Kilobyte (0x1000) address boundary.**

### Why does this rule exist?

The spec gives two reasons (IHI0022E A3.4.1): the rule prevents a burst from crossing a boundary between two slaves, and it limits the number of address increments a slave must support.
So an interconnect can decode a whole burst from its start address, and a slave only needs a 12-bit incrementer.
If a burst starts at address `0x0FF0` and is 64 bytes long, it crosses into `0x1000`, which may belong to a different slave.

### The Pitfall

The protocol does not define what happens when a master breaks the rule. A typical interconnect routes the whole burst by its start address, so the beats past `0x1000` reach the first slave. Depending on the slave, they alias onto its own addresses, get an `SLVERR`, or silently corrupt data. The other slave never sees them.

### The Verification Check

Your monitor or scoreboard should catch this immediately:

```systemverilog
// [Protocol IHI0022E A3.4.1] Only INCR bursts can cross: a legal WRAP stays
// inside its wrap region and a FIXED burst repeats one address.
function void check_4kb_boundary(axi_transaction txn);
  bit [31:0] aligned_addr, end_addr;
  if (txn.burst != 2'b01) return;  // INCR only

  // Only the first transfer may be unaligned, and it does not use the bytes
  // below txn.addr, so count from the aligned address.
  aligned_addr = (txn.addr >> txn.size) << txn.size;
  end_addr     = aligned_addr + (txn.len + 1) * (1 << txn.size) - 1;

  // If the top 20 bits change, we crossed a 4KB boundary
  if ((txn.addr & 32'hFFFF_F000) != (end_addr & 32'hFFFF_F000)) begin
    `uvm_error("AXI_VIOLATION", $sformatf("INCR burst crossed 4KB boundary! Start: %0h, End: %0h", txn.addr, end_addr))
  end
endfunction
```

---

## 4. Misaligned Strobes (`WSTRB`)

The `WSTRB` (Write Strobe) signal allows a master to update only specific bytes within a data word.
A common pitfall is miscalculating the `WSTRB` for **unaligned accesses**.

If a master wants to write 2 bytes starting at address `0x1` on a 32-bit (4-byte) bus:
- The data word must contain the bytes in lanes 1 and 2.
- The `WSTRB` must be `4'b0110`.

### The Pitfall
Many custom DMA controllers incorrectly assume that if they are writing 2 bytes, they should just put the bytes at the bottom of the data bus and set `WSTRB = 4'b0011`. 
Because the address is `0x1`, the slave expects the data on lanes 1 and 2, but sees `WSTRB = 4'b0011` (lanes 0 and 1). This results in the wrong bytes being written to memory.

---

<Quiz>
  <QuizQuestion
    question="Which dependency is the AXI protocol violation in the deadlock example?"
    options={[
      "Master waiting for AWREADY before asserting WVALID",
      "Slave delaying AWREADY until it observes AWVALID",
      "Slave delaying AWREADY until it observes WVALID",
      "Master asserting AWVALID and WVALID in the same cycle"
    ]}
    correctAnswer="Master waiting for AWREADY before asserting WVALID"
    explanation="WVALID is source-owned and must not depend on READY. The slave's delayed-READY policy can participate in the cycle, but is not itself the source-VALID protocol violation."
  />
  <QuizQuestion
    question="A master issues an INCR burst starting at address 0x0FE0. The burst consists of 8 beats, and each beat is 8 bytes (AxSIZE = 3). Is this transaction legal?"
    options={[
      "Yes, it is a standard 64-byte burst.",
      "No, the burst crosses a 4KB boundary.",
      "No, INCR bursts cannot have an 8-byte AxSIZE.",
      "Yes, but only if AxCACHE is set to bufferable."
    ]}
    correctAnswer="No, the burst crosses a 4KB boundary."
    explanation="The burst length is 8 beats * 8 bytes = 64 bytes. Start address is 0x0FE0. End address is 0x0FE0 + 64 - 1 = 0x101F. Because it crosses from 0x0FFF to 0x1000, it violates the 4KB boundary rule."
  />
  <QuizQuestion
    question="On a 32-bit data bus, a master writes 1 byte to address 0x3. What should the WSTRB value be?"
    options={[
      "4'b0001",
      "4'b1000",
      "4'b0111",
      "4'b1111"
    ]}
    correctAnswer="4'b1000"
    explanation="Address 0x3 corresponds to the highest byte lane (lane 3) of the 32-bit (4-byte) word. Therefore, only bit 3 of the WSTRB should be asserted: 4'b1000."
  />
</Quiz>

---

## Hands-On Practice

Put your deadlock detection skills to the test with the AXI Deadlock Hunt lab. You'll identify the illegal master dependency, distinguish it from a legal destination policy, and write protocol stability assertions plus separately configured service watchdogs.

<LabLink labId="axi-deadlock-hunt-lab" />
